T298C 000:008.306   SEGGER J-Link V6.88 Log File
T298C 000:008.484   DLL Compiled: Nov 12 2020 17:44:02
T298C 000:008.495   Logging started @ 2021-01-08 17:08
T298C 000:008.506 - 8.511ms
T298C 000:008.525 JLINK_SetWarnOutHandler(...)
T298C 000:008.538 - 0.018ms
T298C 000:008.551 JLINK_OpenEx(...)
T298C 000:014.682   Firmware: J-Link Lite-XMC4200 Rev.1 compiled Mar  1 2019 11:28:26
T298C 000:017.289   Hardware: V1.00
T298C 000:017.369   S/N: 591126077
T298C 000:017.395   OEM: SEGGER
T298C 000:017.420   Feature(s): None
T298C 000:019.889   TELNET listener socket opened on port 19021
T298C 000:020.336   WEBSRV Starting webserver
T298C 000:020.779   WEBSRV Failed to put socket into listener state (port 19080)
T298C 000:021.410   WEBSRV Webserver running on local port 19081
T298C 000:021.450 - 12.909ms returns "O.K."
T298C 000:021.497 JLINK_GetEmuCaps()
T298C 000:021.517 - 0.031ms returns 0xB8EA5A33
T298C 000:021.553 JLINK_TIF_GetAvailable(...)
T298C 000:021.802 - 0.272ms
T298C 000:021.851 JLINK_SetErrorOutHandler(...)
T298C 000:021.868 - 0.023ms
T298C 000:021.912 JLINK_ExecCommand("ProjectFile = "C:\Users\KumariAnkita\Documents\work\keil_projects\Device\XMClib\examples\XMC4800_series\UART\UART_PRINTF\ARM\JLinkSettings.ini"", ...). 
T298C 000:039.558   Ref file found at: C:\Keil_v5\ARM\Segger\JLinkDevices.ref
T298C 000:039.709   XML referenced by ref file: C:\Program Files (x86)\SEGGER\JLink\JLinkDevices.xml
T298C 000:040.616   C:\Program Files (x86)\SEGGER\JLink\JLinkDevices.xml evaluated successfully.
T298C 000:093.192 - 71.298ms returns 0x00
T298C 000:096.988 JLINK_ExecCommand("Device = XMC4800-F144x2048", ...). 
T298C 000:102.393   Device "XMC4800-2048" selected.
T298C 000:104.745 - 7.746ms returns 0x00
T298C 000:104.823 JLINK_GetHardwareVersion()
T298C 000:104.837 - 0.019ms returns 10000
T298C 000:104.853 JLINK_GetDLLVersion()
T298C 000:104.864 - 0.015ms returns 68800
T298C 000:104.877 JLINK_GetOEMString(...)
T298C 000:104.890 JLINK_GetFirmwareString(...)
T298C 000:104.901 - 0.015ms
T298C 000:120.963 JLINK_GetDLLVersion()
T298C 000:121.013 - 0.056ms returns 68800
T298C 000:121.032 JLINK_GetCompileDateTime()
T298C 000:121.045 - 0.019ms
T298C 000:126.551 JLINK_GetFirmwareString(...)
T298C 000:126.586 - 0.041ms
T298C 000:132.017 JLINK_GetHardwareVersion()
T298C 000:132.048 - 0.036ms returns 10000
T298C 000:136.354 JLINK_GetSN()
T298C 000:136.386 - 0.037ms returns 591126077
T298C 000:140.487 JLINK_GetOEMString(...)
T298C 000:145.090 JLINK_TIF_Select(JLINKARM_TIF_SWD)
T298C 000:145.869 - 0.796ms returns 0x00
T298C 000:145.899 JLINK_HasError()
T298C 000:145.923 JLINK_SetSpeed(5000)
T298C 000:146.007 - 0.101ms
T298C 000:146.038 JLINK_GetId()
T298C 000:150.371   Performing XMC4500 connection sequence.
T298C 000:150.448   JLINK_EMU_HasCapEx(0x0000002C)
T298C 000:150.459   - 0.017ms returns 1
T298C 000:195.756   Old FW that does not support reading DPIDR via DAP jobs
T298C 000:220.399   Unknown DP version. Assuming DPv0
T298C 000:243.051   Scanning AP map to find all available APs
T298C 000:252.040   AP[1]: Stopped AP scan as end of AP map has been reached
T298C 000:260.219   AP[0]: AHB-AP (IDR: 0x24770011)
T298C 000:265.558   Iterating through AP map to find AHB-AP to use
T298C 000:271.840   AP[0]: Core found
T298C 000:279.090   AP[0]: AHB-AP ROM base: 0xE00FF000
T298C 000:285.609   CPUID register: 0x410FC241. Implementer code: 0x41 (ARM)
T298C 000:292.273   Found Cortex-M4 r0p1, Little endian.
T298C 000:393.104   -- Max. mem block: 0x00003BB8
T298C 000:393.169   CPU_ReadMem(4 bytes @ 0xE000EDF0)
T298C 000:393.813   CPU_ReadMem(4 bytes @ 0xE0002000)
T298C 000:400.719   FPUnit: 6 code (BP) slots and 2 literal slots
T298C 000:400.761   CPU_ReadMem(4 bytes @ 0xE000EDFC)
T298C 000:401.175   CPU_WriteMem(4 bytes @ 0xE000EDFC)
T298C 000:401.603   CPU_ReadMem(4 bytes @ 0xE0001000)
T298C 000:402.044   CPU_WriteMem(4 bytes @ 0xE0001000)
T298C 000:402.451   CPU_ReadMem(4 bytes @ 0xE000ED88)
T298C 000:402.828   CPU_WriteMem(4 bytes @ 0xE000ED88)
T298C 000:403.236   CPU_ReadMem(4 bytes @ 0xE000ED88)
T298C 000:403.687   CPU_WriteMem(4 bytes @ 0xE000ED88)
T298C 000:408.746   CoreSight components:
T298C 000:412.973   ROMTbl[0] @ E00FF000
T298C 000:413.044   CPU_ReadMem(64 bytes @ 0xE00FF000)
T298C 000:413.921   CPU_ReadMem(32 bytes @ 0xE000EFE0)
T298C 000:420.614   ROMTbl[0][0]: E000E000, CID: B105E00D, PID: 000BB00C SCS-M7
T298C 000:420.676   CPU_ReadMem(32 bytes @ 0xE0001FE0)
T298C 000:426.485   ROMTbl[0][1]: E0001000, CID: B105E00D, PID: 003BB002 DWT
T298C 000:426.530   CPU_ReadMem(32 bytes @ 0xE0002FE0)
T298C 000:432.787   ROMTbl[0][2]: E0002000, CID: B105E00D, PID: 002BB003 FPB
T298C 000:432.885   CPU_ReadMem(32 bytes @ 0xE0000FE0)
T298C 000:438.342   ROMTbl[0][3]: E0000000, CID: B105E00D, PID: 003BB001 ITM
T298C 000:438.396   CPU_ReadMem(32 bytes @ 0xE0040FE0)
T298C 000:443.993   ROMTbl[0][4]: E0040000, CID: B105900D, PID: 000BB9A1 TPIU
T298C 000:444.050   CPU_ReadMem(32 bytes @ 0xE0041FE0)
T298C 000:452.061   ROMTbl[0][5]: E0041000, CID: B105900D, PID: 000BB925 ETM
T298C 000:452.449 - 306.428ms returns 0x2BA01477
T298C 000:452.490 JLINK_GetDLLVersion()
T298C 000:452.512 - 0.032ms returns 68800
T298C 000:452.540 JLINK_CORE_GetFound()
T298C 000:452.562 - 0.031ms returns 0xE0000FF
T298C 000:452.594 JLINK_GetDebugInfo(0x100 = JLINKARM_ROM_TABLE_ADDR_INDEX)
T298C 000:452.613   Value=0xE00FF000
T298C 000:452.635 - 0.048ms returns 0
T298C 000:460.127 JLINK_GetDebugInfo(0x100 = JLINKARM_ROM_TABLE_ADDR_INDEX)
T298C 000:460.171   Value=0xE00FF000
T298C 000:460.195 - 0.077ms returns 0
T298C 000:460.217 JLINK_GetDebugInfo(0x101 = JLINKARM_DEBUG_INFO_ETM_ADDR_INDEX)
T298C 000:460.235   Value=0xE0041000
T298C 000:460.258 - 0.049ms returns 0
T298C 000:460.279 JLINK_ReadMemEx(0xE0041FD0, 0x20 Bytes, Flags = 0x02000004)
T298C 000:460.331   CPU_ReadMem(32 bytes @ 0xE0041FD0)
T298C 000:460.965   Data:  04 00 00 00 00 00 00 00 00 00 00 00 00 00 00 00 ...
T298C 000:460.995 - 0.721ms returns 32 (0x20)
T298C 000:461.014 JLINK_GetDebugInfo(0x102 = JLINKARM_DEBUG_INFO_MTB_ADDR_INDEX)
T298C 000:461.027   Value=0x00000000
T298C 000:461.047 - 0.041ms returns 0
T298C 000:461.068 JLINK_GetDebugInfo(0x103 = JLINKARM_DEBUG_INFO_TPIU_ADDR_INDEX)
T298C 000:461.085   Value=0xE0040000
T298C 000:461.107 - 0.047ms returns 0
T298C 000:461.128 JLINK_GetDebugInfo(0x104 = JLINKARM_DEBUG_INFO_ITM_ADDR_INDEX)
T298C 000:461.145   Value=0xE0000000
T298C 000:461.168 - 0.048ms returns 0
T298C 000:461.189 JLINK_GetDebugInfo(0x105 = JLINKARM_DEBUG_INFO_DWT_ADDR_INDEX)
T298C 000:461.206   Value=0xE0001000
T298C 000:461.228 - 0.047ms returns 0
T298C 000:461.248 JLINK_GetDebugInfo(0x106 = JLINKARM_DEBUG_INFO_FPB_ADDR_INDEX)
T298C 000:461.266   Value=0xE0002000
T298C 000:461.288 - 0.048ms returns 0
T298C 000:461.308 JLINK_GetDebugInfo(0x107 = JLINKARM_DEBUG_INFO_NVIC_ADDR_INDEX)
T298C 000:461.326   Value=0xE000E000
T298C 000:461.348 - 0.047ms returns 0
T298C 000:461.368 JLINK_GetDebugInfo(0x10C = JLINKARM_DEBUG_INFO_DBG_ADDR_INDEX)
T298C 000:461.386   Value=0xE000EDF0
T298C 000:461.402 - 0.038ms returns 0
T298C 000:461.416 JLINK_GetDebugInfo(0x01 = Unknown)
T298C 000:461.427   Value=0x00000001
T298C 000:461.442 - 0.031ms returns 0
T298C 000:461.455 JLINK_ReadMemU32(0xE000ED00, 0x1 Items)
T298C 000:461.476   CPU_ReadMem(4 bytes @ 0xE000ED00)
T298C 000:461.924   Data:  41 C2 0F 41
T298C 000:461.974   Debug reg: CPUID
T298C 000:462.031 - 0.595ms returns 1 (0x1)
T298C 000:462.104 JLINK_GetDebugInfo(0x10F = JLINKARM_DEBUG_INFO_HAS_CORTEX_M_SECURITY_EXT_INDEX)
T298C 000:462.121   Value=0x00000000
T298C 000:462.158 - 0.061ms returns 0
T298C 000:462.178 JLINK_HasError()
T298C 000:462.200 JLINK_SetResetType(JLINKARM_CM3_RESET_TYPE_NORMAL)
T298C 000:462.216 - 0.021ms returns JLINKARM_CM3_RESET_TYPE_NORMAL
T298C 000:462.230 JLINK_Reset()
T298C 000:467.026   Performing XMC4500 reset
T298C 000:470.256   CPU_ReadMem(4 bytes @ 0x0C000004)
T298C 000:470.643   CPU_WriteMem(4 bytes @ 0xE0002000)
T298C 000:471.036   CPU_ReadMem(4 bytes @ 0xE0002008)
T298C 000:471.407   CPU_WriteMem(4 bytes @ 0xE0002008)
T298C 000:471.801   CPU_WriteMem(4 bytes @ 0xE000ED0C)
T298C 000:493.856   CPU is running
T298C 000:493.906   CPU_WriteMem(4 bytes @ 0xE0002008)
T298C 000:497.582   CPU_WriteMem(4 bytes @ 0xE0002000)
T298C 000:498.071   CPU_ReadMem(4 bytes @ 0xE000EDFC)
T298C 000:498.464   CPU_ReadMem(4 bytes @ 0xE0001000)
T298C 000:499.034 - 36.821ms
T298C 000:499.076 JLINK_Halt()
T298C 000:499.096 - 0.029ms returns 0x00
T298C 000:499.120 JLINK_ReadMemU32(0xE000EDF0, 0x1 Items)
T298C 000:499.151   CPU_ReadMem(4 bytes @ 0xE000EDF0)
T298C 000:499.515   Data:  03 00 03 00
T298C 000:499.536   Debug reg: DHCSR
T298C 000:499.549 - 0.433ms returns 1 (0x1)
T298C 000:499.578 JLINK_WriteU32_64(0xE000EDF0, 0xA05F0003)
T298C 000:499.598   Debug reg: DHCSR
T298C 000:499.629   CPU_WriteMem(4 bytes @ 0xE000EDF0)
T298C 000:500.072 - 0.509ms returns 0 (0x00000000)
T298C 000:500.106 JLINK_WriteU32_64(0xE000EDFC, 0x01000000)
T298C 000:500.121   Debug reg: DEMCR
T298C 000:500.148   CPU_WriteMem(4 bytes @ 0xE000EDFC)
T298C 000:500.551 - 0.460ms returns 0 (0x00000000)
T298C 000:517.111 JLINK_GetHWStatus(...)
T298C 000:517.380 - 0.288ms returns 0
T298C 000:531.943 JLINK_GetNumBPUnits(Type = 0xFFFFFF00)
T298C 000:531.979 - 0.044ms returns 0x06
T298C 000:531.999 JLINK_GetNumBPUnits(Type = 0xF0)
T298C 000:532.013 - 0.021ms returns 0x2000
T298C 000:532.031 JLINK_GetNumWPUnits()
T298C 000:532.045 - 0.021ms returns 4
T298C 000:545.283 JLINK_GetSpeed()
T298C 000:545.319 - 0.045ms returns 3000
T298C 000:559.041 JLINK_ReadMemU32(0xE000E004, 0x1 Items)
T298C 000:559.120   CPU_ReadMem(4 bytes @ 0xE000E004)
T298C 000:559.565   Data:  03 00 00 00
T298C 000:559.611 - 0.580ms returns 1 (0x1)
T298C 000:559.642 JLINK_ReadMemU32(0xE000E004, 0x1 Items)
T298C 000:559.677   CPU_ReadMem(4 bytes @ 0xE000E004)
T298C 000:560.139   Data:  03 00 00 00
T298C 000:560.184 - 0.551ms returns 1 (0x1)
T298C 000:560.214 JLINK_WriteMemEx(0xE0001000, 0x0000001C Bytes, Flags = 0x02000004)
T298C 000:560.236   Data:  01 00 00 00 00 00 00 00 00 00 00 00 00 00 00 00 ...
T298C 000:561.162   CPU_WriteMem(28 bytes @ 0xE0001000)
T298C 000:561.864 - 1.686ms returns 0x1C
T298C 000:561.945 JLINK_Halt()
T298C 000:561.963 - 0.024ms returns 0x00
T298C 000:561.984 JLINK_IsHalted()
T298C 000:562.001 - 0.024ms returns TRUE
T298C 000:567.555 JLINK_WriteMem(0x20000000, 0x248 Bytes, ...)
T298C 000:567.588   Data:  00 BE 0A E0 0D 78 2D 06 68 40 08 24 40 00 00 D3 ...
T298C 000:568.547   CPU_WriteMem(584 bytes @ 0x20000000)
T298C 000:572.795 - 5.258ms returns 0x248
T298C 000:572.872 JLINK_HasError()
T298C 000:572.900 JLINK_WriteReg(R0, 0x08000000)
T298C 000:572.925 - 0.032ms returns 0
T298C 000:572.944 JLINK_WriteReg(R1, 0x00B71B00)
T298C 000:572.960 - 0.022ms returns 0
T298C 000:572.976 JLINK_WriteReg(R2, 0x00000001)
T298C 000:572.991 - 0.021ms returns 0
T298C 000:573.008 JLINK_WriteReg(R3, 0x00000000)
T298C 000:573.022 - 0.021ms returns 0
T298C 000:573.039 JLINK_WriteReg(R4, 0x00000000)
T298C 000:573.069 - 0.038ms returns 0
T298C 000:573.088 JLINK_WriteReg(R5, 0x00000000)
T298C 000:573.102 - 0.024ms returns 0
T298C 000:573.123 JLINK_WriteReg(R6, 0x00000000)
T298C 000:573.137 - 0.021ms returns 0
T298C 000:573.154 JLINK_WriteReg(R7, 0x00000000)
T298C 000:573.168 - 0.021ms returns 0
T298C 000:573.185 JLINK_WriteReg(R8, 0x00000000)
T298C 000:573.207 - 0.029ms returns 0
T298C 000:573.223 JLINK_WriteReg(R9, 0x20000244)
T298C 000:573.237 - 0.021ms returns 0
T298C 000:573.254 JLINK_WriteReg(R10, 0x00000000)
T298C 000:573.268 - 0.020ms returns 0
T298C 000:573.284 JLINK_WriteReg(R11, 0x00000000)
T298C 000:573.298 - 0.020ms returns 0
T298C 000:573.314 JLINK_WriteReg(R12, 0x00000000)
T298C 000:573.328 - 0.020ms returns 0
T298C 000:573.344 JLINK_WriteReg(R13 (SP), 0x20001000)
T298C 000:573.360 - 0.022ms returns 0
T298C 000:573.376 JLINK_WriteReg(R14, 0x20000001)
T298C 000:573.390 - 0.020ms returns 0
T298C 000:573.406 JLINK_WriteReg(R15 (PC), 0x20000070)
T298C 000:573.425 - 0.025ms returns 0
T298C 000:573.441 JLINK_WriteReg(XPSR, 0x01000000)
T298C 000:573.460 - 0.028ms returns 0
T298C 000:573.493 JLINK_WriteReg(MSP, 0x20001000)
T298C 000:573.508 - 0.022ms returns 0
T298C 000:573.525 JLINK_WriteReg(PSP, 0x20001000)
T298C 000:573.540 - 0.022ms returns 0
T298C 000:573.557 JLINK_WriteReg(CFBP, 0x00000000)
T298C 000:573.573 - 0.022ms returns 0
T298C 000:573.590 JLINK_SetBPEx(Addr = 0x20000000, Type = 0xFFFFFFF2)
T298C 000:573.614   CPU_ReadMem(2 bytes @ 0x20000000)
T298C 000:574.052 - 0.476ms returns 0x00000001
T298C 000:574.078 JLINK_Go()
T298C 000:574.092   CPU_WriteMem(2 bytes @ 0x20000000)
T298C 000:574.504   CPU_ReadMem(4 bytes @ 0xE0001000)
T298C 000:574.911   CPU_WriteMem(4 bytes @ 0xE0002008)
T298C 000:574.943   CPU_WriteMem(4 bytes @ 0xE000200C)
T298C 000:574.964   CPU_WriteMem(4 bytes @ 0xE0002010)
T298C 000:574.984   CPU_WriteMem(4 bytes @ 0xE0002014)
T298C 000:575.009   CPU_WriteMem(4 bytes @ 0xE0002018)
T298C 000:575.028   CPU_WriteMem(4 bytes @ 0xE000201C)
T298C 000:576.806   CPU_WriteMem(4 bytes @ 0xE0001004)
T298C 000:580.607 - 6.558ms
T298C 000:580.661 JLINK_IsHalted()
T298C 000:583.970   CPU_ReadMem(2 bytes @ 0x20000000)
T298C 000:584.420 - 3.784ms returns TRUE
T298C 000:584.468 JLINK_ReadReg(R15 (PC))
T298C 000:584.498 - 0.041ms returns 0x20000000
T298C 000:584.528 JLINK_ClrBPEx(BPHandle = 0x00000001)
T298C 000:584.546 - 0.024ms returns 0x00
T298C 000:584.568 JLINK_ReadReg(R0)
T298C 000:584.586 - 0.025ms returns 0x00000000
T298C 000:585.067 JLINK_HasError()
T298C 000:585.093 JLINK_WriteReg(R0, 0x08000000)
T298C 000:585.106 - 0.018ms returns 0
T298C 000:585.119 JLINK_WriteReg(R1, 0x00004000)
T298C 000:585.128 - 0.014ms returns 0
T298C 000:585.139 JLINK_WriteReg(R2, 0x00000000)
T298C 000:585.149 - 0.013ms returns 0
T298C 000:585.160 JLINK_WriteReg(R3, 0x00000000)
T298C 000:585.169 - 0.013ms returns 0
T298C 000:585.182 JLINK_WriteReg(R4, 0x00000000)
T298C 000:585.203 - 0.027ms returns 0
T298C 000:585.221 JLINK_WriteReg(R5, 0x00000000)
T298C 000:585.236 - 0.067ms returns 0
T298C 000:585.303 JLINK_WriteReg(R6, 0x00000000)
T298C 000:585.321 - 0.029ms returns 0
T298C 000:585.343 JLINK_WriteReg(R7, 0x00000000)
T298C 000:585.359 - 0.022ms returns 0
T298C 000:585.376 JLINK_WriteReg(R8, 0x00000000)
T298C 000:585.392 - 0.022ms returns 0
T298C 000:585.409 JLINK_WriteReg(R9, 0x20000244)
T298C 000:585.424 - 0.022ms returns 0
T298C 000:585.443 JLINK_WriteReg(R10, 0x00000000)
T298C 000:585.458 - 0.022ms returns 0
T298C 000:585.474 JLINK_WriteReg(R11, 0x00000000)
T298C 000:585.485 - 0.015ms returns 0
T298C 000:585.497 JLINK_WriteReg(R12, 0x00000000)
T298C 000:585.507 - 0.015ms returns 0
T298C 000:585.522 JLINK_WriteReg(R13 (SP), 0x20001000)
T298C 000:585.539 - 0.022ms returns 0
T298C 000:585.555 JLINK_WriteReg(R14, 0x20000001)
T298C 000:585.570 - 0.022ms returns 0
T298C 000:585.588 JLINK_WriteReg(R15 (PC), 0x20000020)
T298C 000:585.604 - 0.023ms returns 0
T298C 000:585.622 JLINK_WriteReg(XPSR, 0x01000000)
T298C 000:585.637 - 0.023ms returns 0
T298C 000:585.655 JLINK_WriteReg(MSP, 0x20001000)
T298C 000:585.671 - 0.023ms returns 0
T298C 000:585.690 JLINK_WriteReg(PSP, 0x20001000)
T298C 000:585.705 - 0.022ms returns 0
T298C 000:585.722 JLINK_WriteReg(CFBP, 0x00000000)
T298C 000:585.738 - 0.023ms returns 0
T298C 000:585.756 JLINK_SetBPEx(Addr = 0x20000000, Type = 0xFFFFFFF2)
T298C 000:585.775 - 0.027ms returns 0x00000002
T298C 000:585.798 JLINK_Go()
T298C 000:585.839   CPU_ReadMem(4 bytes @ 0xE0001000)
T298C 000:589.540 - 3.773ms
T298C 000:589.593 JLINK_IsHalted()
T298C 000:592.900   CPU_ReadMem(2 bytes @ 0x20000000)
T298C 000:593.321 - 3.741ms returns TRUE
T298C 000:593.346 JLINK_ReadReg(R15 (PC))
T298C 000:593.360 - 0.019ms returns 0x20000000
T298C 000:593.373 JLINK_ClrBPEx(BPHandle = 0x00000002)
T298C 000:593.383 - 0.015ms returns 0x00
T298C 000:593.396 JLINK_ReadReg(R0)
T298C 000:593.406 - 0.014ms returns 0x00000001
T298C 000:593.433 JLINK_HasError()
T298C 000:593.448 JLINK_WriteReg(R0, 0x08000000)
T298C 000:593.462 - 0.022ms returns 0
T298C 000:593.478 JLINK_WriteReg(R1, 0x00004000)
T298C 000:593.532 - 0.062ms returns 0
T298C 000:593.548 JLINK_WriteReg(R2, 0x00000000)
T298C 000:593.558 - 0.014ms returns 0
T298C 000:593.569 JLINK_WriteReg(R3, 0x00000000)
T298C 000:593.578 - 0.013ms returns 0
T298C 000:593.590 JLINK_WriteReg(R4, 0x00000000)
T298C 000:593.599 - 0.013ms returns 0
T298C 000:593.610 JLINK_WriteReg(R5, 0x00000000)
T298C 000:593.619 - 0.013ms returns 0
T298C 000:593.630 JLINK_WriteReg(R6, 0x00000000)
T298C 000:593.639 - 0.013ms returns 0
T298C 000:593.651 JLINK_WriteReg(R7, 0x00000000)
T298C 000:593.660 - 0.015ms returns 0
T298C 000:593.676 JLINK_WriteReg(R8, 0x00000000)
T298C 000:593.688 - 0.016ms returns 0
T298C 000:593.699 JLINK_WriteReg(R9, 0x20000244)
T298C 000:593.708 - 0.014ms returns 0
T298C 000:593.720 JLINK_WriteReg(R10, 0x00000000)
T298C 000:593.729 - 0.013ms returns 0
T298C 000:593.740 JLINK_WriteReg(R11, 0x00000000)
T298C 000:593.749 - 0.013ms returns 0
T298C 000:593.760 JLINK_WriteReg(R12, 0x00000000)
T298C 000:593.770 - 0.013ms returns 0
T298C 000:593.781 JLINK_WriteReg(R13 (SP), 0x20001000)
T298C 000:593.791 - 0.014ms returns 0
T298C 000:593.802 JLINK_WriteReg(R14, 0x20000001)
T298C 000:593.811 - 0.013ms returns 0
T298C 000:593.822 JLINK_WriteReg(R15 (PC), 0x20000078)
T298C 000:593.831 - 0.013ms returns 0
T298C 000:593.842 JLINK_WriteReg(XPSR, 0x01000000)
T298C 000:593.852 - 0.013ms returns 0
T298C 000:593.863 JLINK_WriteReg(MSP, 0x20001000)
T298C 000:593.872 - 0.013ms returns 0
T298C 000:593.890 JLINK_WriteReg(PSP, 0x20001000)
T298C 000:593.910 - 0.031ms returns 0
T298C 000:593.930 JLINK_WriteReg(CFBP, 0x00000000)
T298C 000:593.941 - 0.015ms returns 0
T298C 000:593.953 JLINK_SetBPEx(Addr = 0x20000000, Type = 0xFFFFFFF2)
T298C 000:593.964 - 0.015ms returns 0x00000003
T298C 000:593.975 JLINK_Go()
T298C 000:594.004   CPU_ReadMem(4 bytes @ 0xE0001000)
T298C 000:597.454 - 3.494ms
T298C 000:597.482 JLINK_IsHalted()
T298C 000:597.849 - 0.381ms returns FALSE
T298C 000:597.898 JLINK_HasError()
T298C 000:630.918 JLINK_IsHalted()
T298C 000:631.339 - 0.439ms returns FALSE
T298C 000:631.371 JLINK_HasError()
T298C 000:634.848 JLINK_IsHalted()
T298C 000:635.300 - 0.467ms returns FALSE
T298C 000:635.329 JLINK_HasError()
T298C 000:636.956 JLINK_IsHalted()
T298C 000:637.361 - 0.419ms returns FALSE
T298C 000:637.391 JLINK_HasError()
T298C 000:638.920 JLINK_IsHalted()
T298C 000:639.330 - 0.425ms returns FALSE
T298C 000:639.358 JLINK_HasError()
T298C 000:640.902 JLINK_IsHalted()
T298C 000:641.308 - 0.423ms returns FALSE
T298C 000:641.339 JLINK_HasError()
T298C 000:642.988 JLINK_IsHalted()
T298C 000:643.489 - 0.521ms returns FALSE
T298C 000:643.527 JLINK_HasError()
T298C 000:644.909 JLINK_IsHalted()
T298C 000:645.350 - 0.460ms returns FALSE
T298C 000:645.388 JLINK_HasError()
T298C 000:646.977 JLINK_IsHalted()
T298C 000:647.345 - 0.380ms returns FALSE
T298C 000:647.370 JLINK_HasError()
T298C 000:648.916 JLINK_IsHalted()
T298C 000:649.348 - 0.445ms returns FALSE
T298C 000:649.374 JLINK_HasError()
T298C 000:650.980 JLINK_IsHalted()
T298C 000:651.406 - 0.439ms returns FALSE
T298C 000:651.431 JLINK_HasError()
T298C 000:652.989 JLINK_IsHalted()
T298C 000:653.464 - 0.529ms returns FALSE
T298C 000:653.541 JLINK_HasError()
T298C 000:654.956 JLINK_IsHalted()
T298C 000:655.387 - 0.446ms returns FALSE
T298C 000:655.414 JLINK_HasError()
T298C 000:656.972 JLINK_IsHalted()
T298C 000:657.419 - 0.463ms returns FALSE
T298C 000:657.450 JLINK_HasError()
T298C 000:658.805 JLINK_IsHalted()
T298C 000:659.205 - 0.417ms returns FALSE
T298C 000:659.239 JLINK_HasError()
T298C 000:660.917 JLINK_IsHalted()
T298C 000:661.366 - 0.466ms returns FALSE
T298C 000:661.396 JLINK_HasError()
T298C 000:662.920 JLINK_IsHalted()
T298C 000:663.548 - 0.659ms returns FALSE
T298C 000:663.750 JLINK_HasError()
T298C 000:664.950 JLINK_IsHalted()
T298C 000:665.526 - 0.599ms returns FALSE
T298C 000:665.570 JLINK_HasError()
T298C 000:666.905 JLINK_IsHalted()
T298C 000:667.338 - 0.453ms returns FALSE
T298C 000:667.377 JLINK_HasError()
T298C 000:668.610 JLINK_IsHalted()
T298C 000:669.044 - 0.451ms returns FALSE
T298C 000:669.081 JLINK_HasError()
T298C 000:670.919 JLINK_IsHalted()
T298C 000:671.332 - 0.428ms returns FALSE
T298C 000:671.362 JLINK_HasError()
T298C 000:672.907 JLINK_IsHalted()
T298C 000:673.291 - 0.401ms returns FALSE
T298C 000:673.322 JLINK_HasError()
T298C 000:674.966 JLINK_IsHalted()
T298C 000:675.408 - 0.460ms returns FALSE
T298C 000:675.441 JLINK_HasError()
T298C 000:676.944 JLINK_IsHalted()
T298C 000:677.419 - 0.497ms returns FALSE
T298C 000:677.466 JLINK_HasError()
T298C 000:679.022 JLINK_IsHalted()
T298C 000:679.500 - 0.498ms returns FALSE
T298C 000:679.535 JLINK_HasError()
T298C 000:683.931 JLINK_IsHalted()
T298C 000:684.494 - 0.583ms returns FALSE
T298C 000:684.529 JLINK_HasError()
T298C 000:685.938 JLINK_IsHalted()
T298C 000:686.411 - 0.496ms returns FALSE
T298C 000:686.453 JLINK_HasError()
T298C 000:687.955 JLINK_IsHalted()
T298C 000:688.403 - 0.472ms returns FALSE
T298C 000:688.448 JLINK_HasError()
T298C 000:692.954 JLINK_IsHalted()
T298C 000:693.445 - 0.512ms returns FALSE
T298C 000:693.487 JLINK_HasError()
T298C 000:694.928 JLINK_IsHalted()
T298C 000:695.401 - 0.495ms returns FALSE
T298C 000:695.443 JLINK_HasError()
T298C 000:699.919 JLINK_IsHalted()
T298C 000:700.365 - 0.466ms returns FALSE
T298C 000:700.402 JLINK_HasError()
T298C 000:701.925 JLINK_IsHalted()
T298C 000:702.409 - 0.502ms returns FALSE
T298C 000:702.442 JLINK_HasError()
T298C 000:706.594 JLINK_IsHalted()
T298C 000:707.051 - 0.475ms returns FALSE
T298C 000:707.084 JLINK_HasError()
T298C 000:708.939 JLINK_IsHalted()
T298C 000:709.421 - 0.511ms returns FALSE
T298C 000:709.475 JLINK_HasError()
T298C 000:713.030 JLINK_IsHalted()
T298C 000:713.473 - 0.466ms returns FALSE
T298C 000:713.517 JLINK_HasError()
T298C 000:714.684 JLINK_IsHalted()
T298C 000:715.076 - 0.407ms returns FALSE
T298C 000:715.106 JLINK_HasError()
T298C 000:716.921 JLINK_IsHalted()
T298C 000:717.369 - 0.469ms returns FALSE
T298C 000:717.410 JLINK_HasError()
T298C 000:720.921 JLINK_IsHalted()
T298C 000:721.423 - 0.526ms returns FALSE
T298C 000:721.467 JLINK_HasError()
T298C 000:722.907 JLINK_IsHalted()
T298C 000:723.373 - 0.490ms returns FALSE
T298C 000:723.431 JLINK_HasError()
T298C 000:724.923 JLINK_IsHalted()
T298C 000:725.405 - 0.508ms returns FALSE
T298C 000:725.452 JLINK_HasError()
T298C 000:729.996 JLINK_IsHalted()
T298C 000:730.441 - 0.461ms returns FALSE
T298C 000:730.473 JLINK_HasError()
T298C 000:731.954 JLINK_IsHalted()
T298C 000:732.388 - 0.451ms returns FALSE
T298C 000:732.420 JLINK_HasError()
T298C 000:735.914 JLINK_IsHalted()
T298C 000:736.341 - 0.443ms returns FALSE
T298C 000:736.371 JLINK_HasError()
T298C 000:737.949 JLINK_IsHalted()
T298C 000:738.387 - 0.455ms returns FALSE
T298C 000:738.419 JLINK_HasError()
T298C 000:745.999 JLINK_IsHalted()
T298C 000:746.611 - 0.650ms returns FALSE
T298C 000:746.683 JLINK_HasError()
T298C 000:753.119 JLINK_IsHalted()
T298C 000:753.695 - 0.615ms returns FALSE
T298C 000:753.766 JLINK_HasError()
T298C 000:760.215 JLINK_IsHalted()
T298C 000:760.747 - 0.568ms returns FALSE
T298C 000:760.816 JLINK_HasError()
T298C 000:766.165 JLINK_IsHalted()
T298C 000:766.680 - 0.543ms returns FALSE
T298C 000:766.731 JLINK_HasError()
T298C 000:768.048 JLINK_IsHalted()
T298C 000:768.541 - 0.524ms returns FALSE
T298C 000:768.596 JLINK_HasError()
T298C 000:784.064 JLINK_IsHalted()
T298C 000:784.612 - 0.575ms returns FALSE
T298C 000:784.664 JLINK_HasError()
T298C 000:792.070 JLINK_IsHalted()
T298C 000:792.592 - 0.552ms returns FALSE
T298C 000:792.646 JLINK_HasError()
T298C 000:798.066 JLINK_IsHalted()
T298C 000:798.603 - 0.563ms returns FALSE
T298C 000:798.654 JLINK_HasError()
T298C 000:805.046 JLINK_IsHalted()
T298C 000:805.583 - 0.561ms returns FALSE
T298C 000:805.630 JLINK_HasError()
T298C 000:810.078 JLINK_IsHalted()
T298C 000:810.599 - 0.547ms returns FALSE
T298C 000:810.649 JLINK_HasError()
T298C 000:812.026 JLINK_IsHalted()
T298C 000:812.568 - 0.568ms returns FALSE
T298C 000:812.624 JLINK_HasError()
T298C 000:818.047 JLINK_IsHalted()
T298C 000:818.603 - 0.588ms returns FALSE
T298C 000:818.660 JLINK_HasError()
T298C 000:820.065 JLINK_IsHalted()
T298C 000:820.590 - 0.562ms returns FALSE
T298C 000:820.671 JLINK_HasError()
T298C 000:826.075 JLINK_IsHalted()
T298C 000:826.631 - 0.590ms returns FALSE
T298C 000:826.696 JLINK_HasError()
T298C 000:828.051 JLINK_IsHalted()
T298C 000:828.668 - 0.649ms returns FALSE
T298C 000:828.730 JLINK_HasError()
T298C 000:834.036 JLINK_IsHalted()
T298C 000:834.591 - 0.600ms returns FALSE
T298C 000:834.676 JLINK_HasError()
T298C 000:850.736 JLINK_IsHalted()
T298C 000:851.266 - 0.556ms returns FALSE
T298C 000:851.316 JLINK_HasError()
T298C 000:901.027 JLINK_IsHalted()
T298C 000:901.448 - 0.444ms returns FALSE
T298C 000:901.489 JLINK_HasError()
T298C 000:905.094 JLINK_IsHalted()
T298C 000:905.778 - 0.702ms returns FALSE
T298C 000:905.810 JLINK_HasError()
T298C 000:907.017 JLINK_IsHalted()
T298C 000:907.434 - 0.432ms returns FALSE
T298C 000:907.470 JLINK_HasError()
T298C 000:909.061 JLINK_IsHalted()
T298C 000:909.492 - 0.452ms returns FALSE
T298C 000:909.536 JLINK_HasError()
T298C 000:915.033 JLINK_IsHalted()
T298C 000:915.494 - 0.494ms returns FALSE
T298C 000:915.539 JLINK_HasError()
T298C 000:919.038 JLINK_IsHalted()
T298C 000:922.317   CPU_ReadMem(2 bytes @ 0x20000000)
T298C 000:922.812 - 3.793ms returns TRUE
T298C 000:922.846 JLINK_ReadReg(R15 (PC))
T298C 000:922.862 - 0.022ms returns 0x20000000
T298C 000:922.877 JLINK_ClrBPEx(BPHandle = 0x00000003)
T298C 000:922.889 - 0.018ms returns 0x00
T298C 000:922.904 JLINK_ReadReg(R0)
T298C 000:922.916 - 0.017ms returns 0x00000000
T298C 000:923.546 JLINK_HasError()
T298C 000:923.575 JLINK_WriteReg(R0, 0x00000001)
T298C 000:923.589 - 0.019ms returns 0
T298C 000:923.601 JLINK_WriteReg(R1, 0x00004000)
T298C 000:923.612 - 0.014ms returns 0
T298C 000:923.623 JLINK_WriteReg(R2, 0x00000000)
T298C 000:923.633 - 0.014ms returns 0
T298C 000:923.645 JLINK_WriteReg(R3, 0x00000000)
T298C 000:923.654 - 0.014ms returns 0
T298C 000:923.666 JLINK_WriteReg(R4, 0x00000000)
T298C 000:923.675 - 0.014ms returns 0
T298C 000:923.687 JLINK_WriteReg(R5, 0x00000000)
T298C 000:923.696 - 0.014ms returns 0
T298C 000:923.708 JLINK_WriteReg(R6, 0x00000000)
T298C 000:923.718 - 0.014ms returns 0
T298C 000:923.729 JLINK_WriteReg(R7, 0x00000000)
T298C 000:923.739 - 0.014ms returns 0
T298C 000:923.751 JLINK_WriteReg(R8, 0x00000000)
T298C 000:923.761 - 0.014ms returns 0
T298C 000:923.772 JLINK_WriteReg(R9, 0x20000244)
T298C 000:923.782 - 0.014ms returns 0
T298C 000:923.793 JLINK_WriteReg(R10, 0x00000000)
T298C 000:923.804 - 0.014ms returns 0
T298C 000:923.815 JLINK_WriteReg(R11, 0x00000000)
T298C 000:923.825 - 0.014ms returns 0
T298C 000:923.836 JLINK_WriteReg(R12, 0x00000000)
T298C 000:923.846 - 0.014ms returns 0
T298C 000:923.857 JLINK_WriteReg(R13 (SP), 0x20001000)
T298C 000:923.868 - 0.015ms returns 0
T298C 000:923.880 JLINK_WriteReg(R14, 0x20000001)
T298C 000:923.890 - 0.014ms returns 0
T298C 000:923.901 JLINK_WriteReg(R15 (PC), 0x20000074)
T298C 000:923.911 - 0.014ms returns 0
T298C 000:923.923 JLINK_WriteReg(XPSR, 0x01000000)
T298C 000:923.933 - 0.014ms returns 0
T298C 000:923.944 JLINK_WriteReg(MSP, 0x20001000)
T298C 000:923.954 - 0.014ms returns 0
T298C 000:923.966 JLINK_WriteReg(PSP, 0x20001000)
T298C 000:923.975 - 0.014ms returns 0
T298C 000:923.996 JLINK_WriteReg(CFBP, 0x00000000)
T298C 000:924.011 - 0.022ms returns 0
T298C 000:924.029 JLINK_SetBPEx(Addr = 0x20000000, Type = 0xFFFFFFF2)
T298C 000:924.046 - 0.021ms returns 0x00000004
T298C 000:924.058 JLINK_Go()
T298C 000:924.078   CPU_ReadMem(4 bytes @ 0xE0001000)
T298C 000:927.586 - 3.554ms
T298C 000:927.631 JLINK_IsHalted()
T298C 000:930.901   CPU_ReadMem(2 bytes @ 0x20000000)
T298C 000:931.313 - 3.696ms returns TRUE
T298C 000:931.342 JLINK_ReadReg(R15 (PC))
T298C 000:931.369 - 0.032ms returns 0x20000000
T298C 000:931.385 JLINK_ClrBPEx(BPHandle = 0x00000004)
T298C 000:931.397 - 0.023ms returns 0x00
T298C 000:931.420 JLINK_ReadReg(R0)
T298C 000:931.432 - 0.018ms returns 0x00000000
T298C 001:008.646 JLINK_WriteMem(0x20000000, 0x248 Bytes, ...)
T298C 001:008.707   Data:  00 BE 0A E0 0D 78 2D 06 68 40 08 24 40 00 00 D3 ...
T298C 001:008.759   CPU_WriteMem(584 bytes @ 0x20000000)
T298C 001:013.057 - 4.460ms returns 0x248
T298C 001:013.251 JLINK_HasError()
T298C 001:013.286 JLINK_WriteReg(R0, 0x08000000)
T298C 001:013.313 - 0.037ms returns 0
T298C 001:013.338 JLINK_WriteReg(R1, 0x00B71B00)
T298C 001:013.358 - 0.029ms returns 0
T298C 001:013.381 JLINK_WriteReg(R2, 0x00000002)
T298C 001:013.401 - 0.029ms returns 0
T298C 001:013.424 JLINK_WriteReg(R3, 0x00000000)
T298C 001:013.443 - 0.028ms returns 0
T298C 001:013.467 JLINK_WriteReg(R4, 0x00000000)
T298C 001:013.486 - 0.028ms returns 0
T298C 001:013.509 JLINK_WriteReg(R5, 0x00000000)
T298C 001:013.528 - 0.028ms returns 0
T298C 001:013.551 JLINK_WriteReg(R6, 0x00000000)
T298C 001:013.570 - 0.028ms returns 0
T298C 001:013.593 JLINK_WriteReg(R7, 0x00000000)
T298C 001:013.612 - 0.028ms returns 0
T298C 001:013.636 JLINK_WriteReg(R8, 0x00000000)
T298C 001:013.655 - 0.028ms returns 0
T298C 001:013.679 JLINK_WriteReg(R9, 0x20000244)
T298C 001:013.698 - 0.029ms returns 0
T298C 001:013.722 JLINK_WriteReg(R10, 0x00000000)
T298C 001:013.741 - 0.028ms returns 0
T298C 001:013.764 JLINK_WriteReg(R11, 0x00000000)
T298C 001:013.783 - 0.028ms returns 0
T298C 001:013.806 JLINK_WriteReg(R12, 0x00000000)
T298C 001:013.825 - 0.028ms returns 0
T298C 001:013.848 JLINK_WriteReg(R13 (SP), 0x20001000)
T298C 001:013.870 - 0.031ms returns 0
T298C 001:013.894 JLINK_WriteReg(R14, 0x20000001)
T298C 001:013.920 - 0.047ms returns 0
T298C 001:013.963 JLINK_WriteReg(R15 (PC), 0x20000070)
T298C 001:013.994 - 0.045ms returns 0
T298C 001:014.028 JLINK_WriteReg(XPSR, 0x01000000)
T298C 001:014.059 - 0.044ms returns 0
T298C 001:014.101 JLINK_WriteReg(MSP, 0x20001000)
T298C 001:014.124 - 0.036ms returns 0
T298C 001:014.158 JLINK_WriteReg(PSP, 0x20001000)
T298C 001:014.188 - 0.043ms returns 0
T298C 001:014.221 JLINK_WriteReg(CFBP, 0x00000000)
T298C 001:014.251 - 0.044ms returns 0
T298C 001:014.286 JLINK_SetBPEx(Addr = 0x20000000, Type = 0xFFFFFFF2)
T298C 001:014.332   CPU_ReadMem(2 bytes @ 0x20000000)
T298C 001:014.903 - 0.648ms returns 0x00000005
T298C 001:014.958 JLINK_Go()
T298C 001:014.989   CPU_WriteMem(2 bytes @ 0x20000000)
T298C 001:015.547   CPU_ReadMem(4 bytes @ 0xE0001000)
T298C 001:019.716 - 4.929ms
T298C 001:019.929 JLINK_IsHalted()
T298C 001:023.614   CPU_ReadMem(2 bytes @ 0x20000000)
T298C 001:024.212 - 4.327ms returns TRUE
T298C 001:024.320 JLINK_ReadReg(R15 (PC))
T298C 001:024.364 - 0.061ms returns 0x20000000
T298C 001:024.415 JLINK_ClrBPEx(BPHandle = 0x00000005)
T298C 001:024.461 - 0.061ms returns 0x00
T298C 001:024.509 JLINK_ReadReg(R0)
T298C 001:024.543 - 0.048ms returns 0x00000000
T298C 001:026.261 JLINK_WriteMem(0x20000348, 0xB8 Bytes, ...)
T298C 001:026.334   Data:  A8 0C 00 20 D9 24 00 08 E5 24 00 08 E5 24 00 08 ...
T298C 001:026.406   CPU_WriteMem(184 bytes @ 0x20000348)
T298C 001:028.245 - 2.017ms returns 0xB8
T298C 001:028.302 JLINK_WriteMem(0x20000400, 0x48 Bytes, ...)
T298C 001:028.326   Data:  E5 24 00 08 E5 24 00 08 E5 24 00 08 E5 24 00 08 ...
T298C 001:028.402   CPU_WriteMem(72 bytes @ 0x20000400)
T298C 001:029.459 - 1.193ms returns 0x48
T298C 001:029.532 JLINK_HasError()
T298C 001:029.566 JLINK_WriteReg(R0, 0x08000000)
T298C 001:029.592 - 0.036ms returns 0
T298C 001:029.617 JLINK_WriteReg(R1, 0x00000100)
T298C 001:029.637 - 0.029ms returns 0
T298C 001:029.661 JLINK_WriteReg(R2, 0x20000348)
T298C 001:029.680 - 0.028ms returns 0
T298C 001:029.703 JLINK_WriteReg(R3, 0x00000000)
T298C 001:029.722 - 0.028ms returns 0
T298C 001:029.746 JLINK_WriteReg(R4, 0x00000000)
T298C 001:029.765 - 0.028ms returns 0
T298C 001:029.788 JLINK_WriteReg(R5, 0x00000000)
T298C 001:029.807 - 0.028ms returns 0
T298C 001:029.830 JLINK_WriteReg(R6, 0x00000000)
T298C 001:029.849 - 0.028ms returns 0
T298C 001:029.872 JLINK_WriteReg(R7, 0x00000000)
T298C 001:029.904 - 0.041ms returns 0
T298C 001:029.928 JLINK_WriteReg(R8, 0x00000000)
T298C 001:029.948 - 0.028ms returns 0
T298C 001:029.971 JLINK_WriteReg(R9, 0x20000244)
T298C 001:029.990 - 0.028ms returns 0
T298C 001:030.013 JLINK_WriteReg(R10, 0x00000000)
T298C 001:030.032 - 0.028ms returns 0
T298C 001:030.055 JLINK_WriteReg(R11, 0x00000000)
T298C 001:030.109 - 0.063ms returns 0
T298C 001:030.134 JLINK_WriteReg(R12, 0x00000000)
T298C 001:030.153 - 0.028ms returns 0
T298C 001:030.176 JLINK_WriteReg(R13 (SP), 0x20001000)
T298C 001:030.198 - 0.030ms returns 0
T298C 001:030.221 JLINK_WriteReg(R14, 0x20000001)
T298C 001:030.240 - 0.028ms returns 0
T298C 001:030.264 JLINK_WriteReg(R15 (PC), 0x200000EA)
T298C 001:030.284 - 0.029ms returns 0
T298C 001:030.307 JLINK_WriteReg(XPSR, 0x01000000)
T298C 001:030.327 - 0.029ms returns 0
T298C 001:030.350 JLINK_WriteReg(MSP, 0x20001000)
T298C 001:030.370 - 0.029ms returns 0
T298C 001:030.393 JLINK_WriteReg(PSP, 0x20001000)
T298C 001:030.412 - 0.028ms returns 0
T298C 001:030.435 JLINK_WriteReg(CFBP, 0x00000000)
T298C 001:030.454 - 0.028ms returns 0
T298C 001:030.478 JLINK_SetBPEx(Addr = 0x20000000, Type = 0xFFFFFFF2)
T298C 001:030.500 - 0.031ms returns 0x00000006
T298C 001:030.524 JLINK_Go()
T298C 001:030.571   CPU_ReadMem(4 bytes @ 0xE0001000)
T298C 001:034.538 - 4.070ms
T298C 001:034.636 JLINK_IsHalted()
T298C 001:035.140 - 0.580ms returns FALSE
T298C 001:035.267 JLINK_HasError()
T298C 001:098.113 JLINK_IsHalted()
T298C 001:101.495   CPU_ReadMem(2 bytes @ 0x20000000)
T298C 001:101.980 - 3.892ms returns TRUE
T298C 001:102.039 JLINK_ReadReg(R15 (PC))
T298C 001:102.069 - 0.046ms returns 0x20000000
T298C 001:102.110 JLINK_ClrBPEx(BPHandle = 0x00000006)
T298C 001:102.150 - 0.053ms returns 0x00
T298C 001:102.192 JLINK_ReadReg(R0)
T298C 001:102.247 - 0.067ms returns 0x00000000
T298C 001:103.454 JLINK_WriteMem(0x20000348, 0xB8 Bytes, ...)
T298C 001:103.487   Data:  E5 24 00 08 E5 24 00 08 E5 24 00 08 E5 24 00 08 ...
T298C 001:103.524   CPU_WriteMem(184 bytes @ 0x20000348)
T298C 001:105.291 - 1.866ms returns 0xB8
T298C 001:105.344 JLINK_WriteMem(0x20000400, 0x48 Bytes, ...)
T298C 001:105.367   Data:  E5 24 00 08 E5 24 00 08 E5 24 00 08 E5 24 00 08 ...
T298C 001:105.414   CPU_WriteMem(72 bytes @ 0x20000400)
T298C 001:106.428 - 1.109ms returns 0x48
T298C 001:106.471 JLINK_HasError()
T298C 001:106.491 JLINK_WriteReg(R0, 0x08000100)
T298C 001:106.511 - 0.027ms returns 0
T298C 001:106.529 JLINK_WriteReg(R1, 0x00000100)
T298C 001:106.543 - 0.021ms returns 0
T298C 001:106.767 JLINK_WriteReg(R2, 0x20000348)
T298C 001:106.791 - 0.034ms returns 0
T298C 001:106.823 JLINK_WriteReg(R3, 0x00000000)
T298C 001:106.845 - 0.031ms returns 0
T298C 001:106.876 JLINK_WriteReg(R4, 0x00000000)
T298C 001:106.909 - 0.043ms returns 0
T298C 001:106.935 JLINK_WriteReg(R5, 0x00000000)
T298C 001:106.959 - 0.038ms returns 0
T298C 001:106.991 JLINK_WriteReg(R6, 0x00000000)
T298C 001:107.021 - 0.041ms returns 0
T298C 001:107.048 JLINK_WriteReg(R7, 0x00000000)
T298C 001:107.085 - 0.049ms returns 0
T298C 001:107.114 JLINK_WriteReg(R8, 0x00000000)
T298C 001:107.139 - 0.034ms returns 0
T298C 001:107.162 JLINK_WriteReg(R9, 0x20000244)
T298C 001:107.181 - 0.029ms returns 0
T298C 001:107.206 JLINK_WriteReg(R10, 0x00000000)
T298C 001:107.228 - 0.032ms returns 0
T298C 001:107.257 JLINK_WriteReg(R11, 0x00000000)
T298C 001:107.283 - 0.037ms returns 0
T298C 001:107.309 JLINK_WriteReg(R12, 0x00000000)
T298C 001:107.330 - 0.030ms returns 0
T298C 001:107.354 JLINK_WriteReg(R13 (SP), 0x20001000)
T298C 001:107.376 - 0.032ms returns 0
T298C 001:107.400 JLINK_WriteReg(R14, 0x20000001)
T298C 001:107.421 - 0.030ms returns 0
T298C 001:107.445 JLINK_WriteReg(R15 (PC), 0x200000EA)
T298C 001:107.462 - 0.027ms returns 0
T298C 001:107.487 JLINK_WriteReg(XPSR, 0x01000000)
T298C 001:107.604 - 0.132ms returns 0
T298C 001:107.635 JLINK_WriteReg(MSP, 0x20001000)
T298C 001:107.658 - 0.032ms returns 0
T298C 001:107.683 JLINK_WriteReg(PSP, 0x20001000)
T298C 001:107.711 - 0.044ms returns 0
T298C 001:107.742 JLINK_WriteReg(CFBP, 0x00000000)
T298C 001:107.764 - 0.031ms returns 0
T298C 001:107.789 JLINK_SetBPEx(Addr = 0x20000000, Type = 0xFFFFFFF2)
T298C 001:107.815 - 0.036ms returns 0x00000007
T298C 001:107.841 JLINK_Go()
T298C 001:107.879   CPU_ReadMem(4 bytes @ 0xE0001000)
T298C 001:111.630 - 4.027ms
T298C 001:111.890 JLINK_IsHalted()
T298C 001:112.316 - 0.444ms returns FALSE
T298C 001:112.350 JLINK_HasError()
T298C 001:120.195 JLINK_IsHalted()
T298C 001:123.533   CPU_ReadMem(2 bytes @ 0x20000000)
T298C 001:123.953 - 3.777ms returns TRUE
T298C 001:123.987 JLINK_ReadReg(R15 (PC))
T298C 001:124.007 - 0.027ms returns 0x20000000
T298C 001:124.025 JLINK_ClrBPEx(BPHandle = 0x00000007)
T298C 001:124.040 - 0.022ms returns 0x00
T298C 001:124.057 JLINK_ReadReg(R0)
T298C 001:124.080 - 0.033ms returns 0x00000000
T298C 001:125.042 JLINK_WriteMem(0x20000348, 0xB8 Bytes, ...)
T298C 001:125.077   Data:  00 F0 02 F8 00 F0 4C F8 0A A0 90 E8 00 0C 82 44 ...
T298C 001:125.132   CPU_WriteMem(184 bytes @ 0x20000348)
T298C 001:126.866 - 1.844ms returns 0xB8
T298C 001:126.902 JLINK_WriteMem(0x20000400, 0x48 Bytes, ...)
T298C 001:126.918   Data:  03 BC 03 F0 B7 F9 00 00 04 46 0D 46 16 46 2B 46 ...
T298C 001:126.949   CPU_WriteMem(72 bytes @ 0x20000400)
T298C 001:127.870 - 0.986ms returns 0x48
T298C 001:127.905 JLINK_HasError()
T298C 001:127.924 JLINK_WriteReg(R0, 0x08000200)
T298C 001:127.943 - 0.026ms returns 0
T298C 001:127.960 JLINK_WriteReg(R1, 0x00000100)
T298C 001:127.975 - 0.021ms returns 0
T298C 001:127.991 JLINK_WriteReg(R2, 0x20000348)
T298C 001:128.005 - 0.020ms returns 0
T298C 001:128.021 JLINK_WriteReg(R3, 0x00000000)
T298C 001:128.035 - 0.020ms returns 0
T298C 001:128.051 JLINK_WriteReg(R4, 0x00000000)
T298C 001:128.065 - 0.023ms returns 0
T298C 001:128.094 JLINK_WriteReg(R5, 0x00000000)
T298C 001:128.128 - 0.048ms returns 0
T298C 001:128.171 JLINK_WriteReg(R6, 0x00000000)
T298C 001:128.190 - 0.029ms returns 0
T298C 001:128.220 JLINK_WriteReg(R7, 0x00000000)
T298C 001:128.242 - 0.032ms returns 0
T298C 001:128.271 JLINK_WriteReg(R8, 0x00000000)
T298C 001:128.294 - 0.032ms returns 0
T298C 001:128.324 JLINK_WriteReg(R9, 0x20000244)
T298C 001:128.347 - 0.032ms returns 0
T298C 001:128.376 JLINK_WriteReg(R10, 0x00000000)
T298C 001:128.400 - 0.033ms returns 0
T298C 001:128.430 JLINK_WriteReg(R11, 0x00000000)
T298C 001:128.453 - 0.033ms returns 0
T298C 001:128.483 JLINK_WriteReg(R12, 0x00000000)
T298C 001:128.505 - 0.032ms returns 0
T298C 001:128.536 JLINK_WriteReg(R13 (SP), 0x20001000)
T298C 001:128.561 - 0.035ms returns 0
T298C 001:128.591 JLINK_WriteReg(R14, 0x20000001)
T298C 001:128.807 - 0.235ms returns 0
T298C 001:128.855 JLINK_WriteReg(R15 (PC), 0x200000EA)
T298C 001:128.892 - 0.052ms returns 0
T298C 001:128.936 JLINK_WriteReg(XPSR, 0x01000000)
T298C 001:128.962 - 0.036ms returns 0
T298C 001:128.992 JLINK_WriteReg(MSP, 0x20001000)
T298C 001:129.057 - 0.076ms returns 0
T298C 001:129.101 JLINK_WriteReg(PSP, 0x20001000)
T298C 001:129.126 - 0.036ms returns 0
T298C 001:129.158 JLINK_WriteReg(CFBP, 0x00000000)
T298C 001:129.181 - 0.034ms returns 0
T298C 001:129.214 JLINK_SetBPEx(Addr = 0x20000000, Type = 0xFFFFFFF2)
T298C 001:129.240 - 0.037ms returns 0x00000008
T298C 001:129.272 JLINK_Go()
T298C 001:129.317   CPU_ReadMem(4 bytes @ 0xE0001000)
T298C 001:133.129 - 3.904ms
T298C 001:133.223 JLINK_IsHalted()
T298C 001:133.700 - 0.504ms returns FALSE
T298C 001:133.762 JLINK_HasError()
T298C 001:139.150 JLINK_IsHalted()
T298C 001:142.638   CPU_ReadMem(2 bytes @ 0x20000000)
T298C 001:143.209 - 4.087ms returns TRUE
T298C 001:143.261 JLINK_ReadReg(R15 (PC))
T298C 001:143.290 - 0.040ms returns 0x20000000
T298C 001:143.317 JLINK_ClrBPEx(BPHandle = 0x00000008)
T298C 001:143.339 - 0.033ms returns 0x00
T298C 001:143.365 JLINK_ReadReg(R0)
T298C 001:143.386 - 0.031ms returns 0x00000000
T298C 001:147.030 JLINK_WriteMem(0x20000348, 0xB8 Bytes, ...)
T298C 001:147.107   Data:  38 F8 10 B1 4F F0 FF 30 08 BD 9D F8 00 00 FB E7 ...
T298C 001:147.232   CPU_WriteMem(184 bytes @ 0x20000348)
T298C 001:149.109 - 2.128ms returns 0xB8
T298C 001:149.203 JLINK_WriteMem(0x20000400, 0x48 Bytes, ...)
T298C 001:149.240   Data:  30 00 86 B2 31 46 6E 48 01 F0 CD FC 70 BD 2D E9 ...
T298C 001:149.311   CPU_WriteMem(72 bytes @ 0x20000400)
T298C 001:150.359 - 1.194ms returns 0x48
T298C 001:150.431 JLINK_HasError()
T298C 001:150.470 JLINK_WriteReg(R0, 0x08000300)
T298C 001:150.510 - 0.055ms returns 0
T298C 001:150.547 JLINK_WriteReg(R1, 0x00000100)
T298C 001:150.579 - 0.046ms returns 0
T298C 001:150.615 JLINK_WriteReg(R2, 0x20000348)
T298C 001:150.647 - 0.046ms returns 0
T298C 001:150.682 JLINK_WriteReg(R3, 0x00000000)
T298C 001:150.714 - 0.046ms returns 0
T298C 001:150.749 JLINK_WriteReg(R4, 0x00000000)
T298C 001:150.780 - 0.314ms returns 0
T298C 001:151.106 JLINK_WriteReg(R5, 0x00000000)
T298C 001:151.143 - 0.067ms returns 0
T298C 001:151.198 JLINK_WriteReg(R6, 0x00000000)
T298C 001:151.233 - 0.049ms returns 0
T298C 001:151.269 JLINK_WriteReg(R7, 0x00000000)
T298C 001:151.302 - 0.047ms returns 0
T298C 001:151.337 JLINK_WriteReg(R8, 0x00000000)
T298C 001:151.380 - 0.058ms returns 0
T298C 001:151.427 JLINK_WriteReg(R9, 0x20000244)
T298C 001:151.463 - 0.050ms returns 0
T298C 001:151.510 JLINK_WriteReg(R10, 0x00000000)
T298C 001:151.549 - 0.055ms returns 0
T298C 001:151.586 JLINK_WriteReg(R11, 0x00000000)
T298C 001:151.615 - 0.043ms returns 0
T298C 001:151.650 JLINK_WriteReg(R12, 0x00000000)
T298C 001:151.683 - 0.047ms returns 0
T298C 001:151.726 JLINK_WriteReg(R13 (SP), 0x20001000)
T298C 001:151.884 - 0.177ms returns 0
T298C 001:151.927 JLINK_WriteReg(R14, 0x20000001)
T298C 001:151.960 - 0.048ms returns 0
T298C 001:151.999 JLINK_WriteReg(R15 (PC), 0x200000EA)
T298C 001:152.038 - 0.058ms returns 0
T298C 001:152.090 JLINK_WriteReg(XPSR, 0x01000000)
T298C 001:152.128 - 0.063ms returns 0
T298C 001:152.177 JLINK_WriteReg(MSP, 0x20001000)
T298C 001:152.227 - 0.066ms returns 0
T298C 001:152.271 JLINK_WriteReg(PSP, 0x20001000)
T298C 001:152.315 - 0.065ms returns 0
T298C 001:152.369 JLINK_WriteReg(CFBP, 0x00000000)
T298C 001:152.489 - 0.130ms returns 0
T298C 001:152.515 JLINK_SetBPEx(Addr = 0x20000000, Type = 0xFFFFFFF2)
T298C 001:152.541 - 0.035ms returns 0x00000009
T298C 001:152.565 JLINK_Go()
T298C 001:152.603   CPU_ReadMem(4 bytes @ 0xE0001000)
T298C 001:156.723 - 4.193ms
T298C 001:156.783 JLINK_IsHalted()
T298C 001:157.204 - 0.447ms returns FALSE
T298C 001:157.253 JLINK_HasError()
T298C 001:159.146 JLINK_IsHalted()
T298C 001:159.661 - 0.541ms returns FALSE
T298C 001:159.710 JLINK_HasError()
T298C 001:161.134 JLINK_IsHalted()
T298C 001:161.664 - 0.557ms returns FALSE
T298C 001:161.714 JLINK_HasError()
T298C 001:163.148 JLINK_IsHalted()
T298C 001:166.980   CPU_ReadMem(2 bytes @ 0x20000000)
T298C 001:167.572 - 4.465ms returns TRUE
T298C 001:167.650 JLINK_ReadReg(R15 (PC))
T298C 001:167.695 - 0.061ms returns 0x20000000
T298C 001:167.736 JLINK_ClrBPEx(BPHandle = 0x00000009)
T298C 001:167.773 - 0.053ms returns 0x00
T298C 001:167.812 JLINK_ReadReg(R0)
T298C 001:167.847 - 0.050ms returns 0x00000000
T298C 001:169.561 JLINK_WriteMem(0x20000348, 0xB8 Bytes, ...)
T298C 001:169.608   Data:  23 F0 07 03 13 43 01 F1 1C 04 44 F8 20 30 00 BF ...
T298C 001:169.659   CPU_WriteMem(184 bytes @ 0x20000348)
T298C 001:171.494 - 1.964ms returns 0xB8
T298C 001:171.550 JLINK_WriteMem(0x20000400, 0x48 Bytes, ...)
T298C 001:171.572   Data:  1F 02 01 21 91 40 42 09 92 00 02 F1 E0 22 C2 F8 ...
T298C 001:171.618   CPU_WriteMem(72 bytes @ 0x20000400)
T298C 001:172.594 - 1.076ms returns 0x48
T298C 001:172.657 JLINK_HasError()
T298C 001:172.693 JLINK_WriteReg(R0, 0x08000400)
T298C 001:172.729 - 0.050ms returns 0
T298C 001:172.763 JLINK_WriteReg(R1, 0x00000100)
T298C 001:172.795 - 0.047ms returns 0
T298C 001:172.834 JLINK_WriteReg(R2, 0x20000348)
T298C 001:173.130 - 0.330ms returns 0
T298C 001:173.192 JLINK_WriteReg(R3, 0x00000000)
T298C 001:173.227 - 0.050ms returns 0
T298C 001:173.267 JLINK_WriteReg(R4, 0x00000000)
T298C 001:173.326 - 0.074ms returns 0
T298C 001:173.365 JLINK_WriteReg(R5, 0x00000000)
T298C 001:173.397 - 0.048ms returns 0
T298C 001:173.443 JLINK_WriteReg(R6, 0x00000000)
T298C 001:173.479 - 0.052ms returns 0
T298C 001:173.526 JLINK_WriteReg(R7, 0x00000000)
T298C 001:173.565 - 0.053ms returns 0
T298C 001:173.602 JLINK_WriteReg(R8, 0x00000000)
T298C 001:173.631 - 0.043ms returns 0
T298C 001:173.666 JLINK_WriteReg(R9, 0x20000244)
T298C 001:173.697 - 0.046ms returns 0
T298C 001:173.739 JLINK_WriteReg(R10, 0x00000000)
T298C 001:173.778 - 0.054ms returns 0
T298C 001:173.815 JLINK_WriteReg(R11, 0x00000000)
T298C 001:173.845 - 0.044ms returns 0
T298C 001:174.003 JLINK_WriteReg(R12, 0x00000000)
T298C 001:174.040 - 0.063ms returns 0
T298C 001:174.101 JLINK_WriteReg(R13 (SP), 0x20001000)
T298C 001:174.137 - 0.051ms returns 0
T298C 001:174.182 JLINK_WriteReg(R14, 0x20000001)
T298C 001:174.226 - 0.058ms returns 0
T298C 001:174.262 JLINK_WriteReg(R15 (PC), 0x200000EA)
T298C 001:174.294 - 0.046ms returns 0
T298C 001:174.329 JLINK_WriteReg(XPSR, 0x01000000)
T298C 001:174.361 - 0.045ms returns 0
T298C 001:174.395 JLINK_WriteReg(MSP, 0x20001000)
T298C 001:174.427 - 0.046ms returns 0
T298C 001:174.463 JLINK_WriteReg(PSP, 0x20001000)
T298C 001:174.495 - 0.146ms returns 0
T298C 001:174.634 JLINK_WriteReg(CFBP, 0x00000000)
T298C 001:174.667 - 0.047ms returns 0
T298C 001:174.703 JLINK_SetBPEx(Addr = 0x20000000, Type = 0xFFFFFFF2)
T298C 001:174.739 - 0.049ms returns 0x0000000A
T298C 001:174.775 JLINK_Go()
T298C 001:174.830   CPU_ReadMem(4 bytes @ 0xE0001000)
T298C 001:178.901 - 4.167ms
T298C 001:178.975 JLINK_IsHalted()
T298C 001:179.452 - 0.518ms returns FALSE
T298C 001:179.529 JLINK_HasError()
T298C 001:188.133 JLINK_IsHalted()
T298C 001:191.574   CPU_ReadMem(2 bytes @ 0x20000000)
T298C 001:192.099 - 3.999ms returns TRUE
T298C 001:192.165 JLINK_ReadReg(R15 (PC))
T298C 001:192.206 - 0.057ms returns 0x20000000
T298C 001:192.245 JLINK_ClrBPEx(BPHandle = 0x0000000A)
T298C 001:192.280 - 0.049ms returns 0x00
T298C 001:192.322 JLINK_ReadReg(R0)
T298C 001:192.346 - 0.034ms returns 0x00000000
T298C 001:194.948 JLINK_WriteMem(0x20000348, 0xB8 Bytes, ...)
T298C 001:194.999   Data:  44 FC 22 49 08 80 08 46 00 88 2C 28 0F D0 08 46 ...
T298C 001:195.062   CPU_WriteMem(184 bytes @ 0x20000348)
T298C 001:196.890 - 1.983ms returns 0xB8
T298C 001:196.965 JLINK_WriteMem(0x20000400, 0x48 Bytes, ...)
T298C 001:197.001   Data:  10 B9 48 F2 01 00 F3 E7 50 A1 20 46 02 F0 C4 FA ...
T298C 001:197.115   CPU_WriteMem(72 bytes @ 0x20000400)
T298C 001:198.157 - 1.234ms returns 0x48
T298C 001:198.243 JLINK_HasError()
T298C 001:198.295 JLINK_WriteReg(R0, 0x08000500)
T298C 001:198.336 - 0.056ms returns 0
T298C 001:198.374 JLINK_WriteReg(R1, 0x00000100)
T298C 001:198.405 - 0.046ms returns 0
T298C 001:198.441 JLINK_WriteReg(R2, 0x20000348)
T298C 001:198.475 - 0.048ms returns 0
T298C 001:198.510 JLINK_WriteReg(R3, 0x00000000)
T298C 001:198.542 - 0.045ms returns 0
T298C 001:198.573 JLINK_WriteReg(R4, 0x00000000)
T298C 001:198.593 - 0.029ms returns 0
T298C 001:198.616 JLINK_WriteReg(R5, 0x00000000)
T298C 001:198.635 - 0.028ms returns 0
T298C 001:198.660 JLINK_WriteReg(R6, 0x00000000)
T298C 001:198.689 - 0.042ms returns 0
T298C 001:198.723 JLINK_WriteReg(R7, 0x00000000)
T298C 001:198.752 - 0.043ms returns 0
T298C 001:198.785 JLINK_WriteReg(R8, 0x00000000)
T298C 001:198.806 - 0.030ms returns 0
T298C 001:198.829 JLINK_WriteReg(R9, 0x20000244)
T298C 001:198.848 - 0.028ms returns 0
T298C 001:198.871 JLINK_WriteReg(R10, 0x00000000)
T298C 001:198.891 - 0.029ms returns 0
T298C 001:198.914 JLINK_WriteReg(R11, 0x00000000)
T298C 001:198.934 - 0.029ms returns 0
T298C 001:198.957 JLINK_WriteReg(R12, 0x00000000)
T298C 001:198.976 - 0.028ms returns 0
T298C 001:198.999 JLINK_WriteReg(R13 (SP), 0x20001000)
T298C 001:199.021 - 0.030ms returns 0
T298C 001:199.044 JLINK_WriteReg(R14, 0x20000001)
T298C 001:199.064 - 0.029ms returns 0
T298C 001:199.106 JLINK_WriteReg(R15 (PC), 0x200000EA)
T298C 001:199.165 - 0.085ms returns 0
T298C 001:199.208 JLINK_WriteReg(XPSR, 0x01000000)
T298C 001:199.231 - 0.032ms returns 0
T298C 001:199.254 JLINK_WriteReg(MSP, 0x20001000)
T298C 001:199.274 - 0.029ms returns 0
T298C 001:199.297 JLINK_WriteReg(PSP, 0x20001000)
T298C 001:199.317 - 0.028ms returns 0
T298C 001:199.340 JLINK_WriteReg(CFBP, 0x00000000)
T298C 001:199.359 - 0.028ms returns 0
T298C 001:199.383 JLINK_SetBPEx(Addr = 0x20000000, Type = 0xFFFFFFF2)
T298C 001:199.407 - 0.033ms returns 0x0000000B
T298C 001:199.430 JLINK_Go()
T298C 001:199.466   CPU_ReadMem(4 bytes @ 0xE0001000)
T298C 001:203.224 - 3.838ms
T298C 001:203.308 JLINK_IsHalted()
T298C 001:203.932 - 0.662ms returns FALSE
T298C 001:204.000 JLINK_HasError()
T298C 001:210.250 JLINK_IsHalted()
T298C 001:213.849   CPU_ReadMem(2 bytes @ 0x20000000)
T298C 001:214.391 - 4.180ms returns TRUE
T298C 001:214.466 JLINK_ReadReg(R15 (PC))
T298C 001:214.507 - 0.057ms returns 0x20000000
T298C 001:214.546 JLINK_ClrBPEx(BPHandle = 0x0000000B)
T298C 001:214.578 - 0.047ms returns 0x00
T298C 001:214.614 JLINK_ReadReg(R0)
T298C 001:214.645 - 0.045ms returns 0x00000000
T298C 001:217.909 JLINK_WriteMem(0x20000348, 0xB8 Bytes, ...)
T298C 001:217.987   Data:  00 20 70 47 00 20 FC E7 00 20 FA E7 4F F0 FF 30 ...
T298C 001:218.103   CPU_WriteMem(184 bytes @ 0x20000348)
T298C 001:220.037 - 2.184ms returns 0xB8
T298C 001:220.133 JLINK_WriteMem(0x20000400, 0x48 Bytes, ...)
T298C 001:220.179   Data:  02 28 09 D1 05 E0 4F F0 FF 30 70 47 4F F0 FF 30 ...
T298C 001:220.258   CPU_WriteMem(72 bytes @ 0x20000400)
T298C 001:221.253 - 1.165ms returns 0x48
T298C 001:221.336 JLINK_HasError()
T298C 001:221.379 JLINK_WriteReg(R0, 0x08000600)
T298C 001:221.424 - 0.061ms returns 0
T298C 001:221.465 JLINK_WriteReg(R1, 0x00000100)
T298C 001:221.500 - 0.050ms returns 0
T298C 001:221.539 JLINK_WriteReg(R2, 0x20000348)
